# HZ S RI R 50
423000000 -0.0755062048 -0.2054192768
423039683 -0.0758804672 -0.20600712640000002
423079366 -0.07614342240000001 -0.2055524064
423119049 -0.07696896319999999 -0.20523465280000003
423158732 -0.0768011344 -0.20444332799999998
423198415 -0.0771398512 -0.2036434528
423238098 -0.0766331984 -0.2033368736
423277781 -0.0774945888 -0.2027458432
423317464 -0.0772522672 -0.20115905920000002
423357147 -0.07784237280000002 -0.2013473152
423396830 -0.0781532048 -0.20032612160000002
423436513 -0.0779568992 -0.1999332544
423476196 -0.0775714144 -0.19986147520000003
423515879 -0.0785399776 -0.1982609792
423555562 -0.0778092544 -0.1982146048
423595245 -0.077719656 -0.1973512192
423634928 -0.0779088048 -0.19580842559999997
423674611 -0.07845263999999999 -0.19549247039999998
423714294 -0.07866559199999999 -0.1950376576
423753977 -0.0785341968 -0.19460263360000002
423793660 -0.0785805856 -0.19365702399999998
423833343 -0.07849301439999999 -0.1932755488
423873026 -0.0785012848 -0.1922674784
423912709 -0.078763208 -0.1924460768
423952392 -0.07825335359999999 -0.191344224
423992075 -0.0779132624 -0.1908820096
424031758 -0.0783878848 -0.18991379199999997
424071441 -0.0782281168 -0.1892997056
424111124 -0.07878700320000001 -0.1881733056
424150807 -0.0782447808 -0.1886232928
424190490 -0.0786783312 -0.1874180896
424230173 -0.079024048 -0.18652765119999998
424269856 -0.0785896944 -0.18598032000000003
424309539 -0.078851824 -0.18583479679999998
424349222 -0.0790661904 -0.1846379232
424388905 -0.07791920640000001 -0.1840282208
424428588 -0.07806476799999999 -0.1831441344
424468271 -0.07787359199999999 -0.1830600928
424507954 -0.07714190879999999 -0.181894272
424547637 -0.077806616 -0.18148499199999998
424587320 -0.0782133888 -0.1808950432
424627003 -0.0776628832 -0.17999533439999998
424666686 -0.0773055712 -0.179622448
424706369 -0.0774913328 -0.17824660799999997
424746052 -0.07712754399999999 -0.1783926048
424785735 -0.076890536 -0.177880384
424825418 -0.0765869776 -0.1771569824
424865101 -0.07661684 -0.17588398080000003
424904784 -0.076781656 -0.17655345919999998
424944467 -0.076427592 -0.17535474880000002
424984150 -0.0758329504 -0.17489241279999998
425023833 -0.07641022559999999 -0.1740144224
425063516 -0.07640948 -0.1739827872
425103199 -0.075642408 -0.1726696736
425142882 -0.07494715199999999 -0.172041952
425182565 -0.0756298912 -0.17201415680000004
425222248 -0.07453354240000001 -0.171375632
425261931 -0.0747087648 -0.17094493439999997
425301614 -0.0748157984 -0.1706468992
425341297 -0.07432746240000002 -0.1693735488
425380980 -0.0729529552 -0.16912618880000002
425420663 -0.0740647504 -0.1675585824
425460346 -0.0737982144 -0.16761027200000003
425500029 -0.0733861344 -0.16668674239999998
425539712 -0.0731776512 -0.16685101119999998
425579395 -0.0719854736 -0.16608117439999998
425619078 -0.07156978239999999 -0.1650131232
425658761 -0.0722031312 -0.1640721152
425698444 -0.07190532320000001 -0.16460230399999998
425738127 -0.0717970656 -0.1640960896
425777810 -0.07125042399999999 -0.16296585600000002
425817493 -0.0706043696 -0.16264086400000002
425857176 -0.07025451999999999 -0.16200973759999998
425896859 -0.0705579744 -0.161142976
425936542 -0.0708841504 -0.161596256
425976225 -0.0695969328 -0.16096656639999998
426015908 -0.06953453600000001 -0.15958393280000002
426055591 -0.0693476336 -0.1593131008
426095274 -0.0686620992 -0.1583256
426134957 -0.0682643392 -0.1580772928
426174640 -0.06789412160000001 -0.15793610560000002
426214323 -0.06740438 -0.156949616
426254006 -0.06597452000000001 -0.156733616
426293689 -0.0673314656 -0.15645297279999998
426333372 -0.0654335088 -0.1554664192
426373055 -0.0660244128 -0.15536043839999997
426412738 -0.0658941936 -0.154451552
426452421 -0.06500246 -0.15497294720000002
426492104 -0.064793276 -0.1533129792
426531787 -0.0635300656 -0.1536731392
426571470 -0.06394365679999998 -0.1522918464
426611153 -0.06325938319999999 -0.15297193280000002
426650836 -0.062347970399999994 -0.152117744
426690519 -0.0629053576 -0.1520526496
426730202 -0.062012371200000006 -0.15097647679999998
426769885 -0.0613847792 -0.150574864
426809568 -0.0613450192 -0.1504881888
426849251 -0.0610189952 -0.15003178560000002
426888934 -0.0598669264 -0.15036614720000002
426928617 -0.0594678544 -0.1492737024
426968300 -0.059788548799999994 -0.1494932672
427007983 -0.059002825599999996 -0.1476207968
427047666 -0.0587169936 -0.14614120960000002
427087349 -0.06009939439999999 -0.1468502336
427127032 -0.0584012104 -0.1465929152
427166715 -0.058345632800000005 -0.1459580576
427206398 -0.056397350400000004 -0.14457031039999999
427246081 -0.05790862720000001 -0.14480526400000002
427285764 -0.05713429760000001 -0.14481311680000003
427325447 -0.055431344800000004 -0.1441358688
427365130 -0.0551465392 -0.143588912
427404813 -0.0547811936 -0.1434194496
427444496 -0.0547394448 -0.1433909152
427484179 -0.054027071999999995 -0.14241240319999998
427523862 -0.05368706399999999 -0.1431252
427563545 -0.053068916 -0.14219274880000002
427603228 -0.0518503696 -0.1421632128
427642911 -0.05214935119999999 -0.1416292032
427682594 -0.0503691632 -0.141245968
427722277 -0.0497700184 -0.14119602879999998
427761960 -0.050391072800000006 -0.1403591424
427801643 -0.049099583999999995 -0.14144227520000002
427841326 -0.0495783568 -0.1402468448
427881009 -0.047850068 -0.1393013824
427920692 -0.0480298528 -0.1396927744
427960375 -0.0471523208 -0.1390318912
428000058 -0.047134951999999994 -0.1394609856
428039741 -0.0454351976 -0.13829588799999998
428079424 -0.045484074400000005 -0.1382015872
428119107 -0.0451442408 -0.1388622496
428158790 -0.0453906456 -0.13867229760000002
428198473 -0.043211812 -0.13781050879999998
428238156 -0.0440052392 -0.13759565440000002
428277839 -0.0428919296 -0.13870272
428317522 -0.0426692816 -0.13732969599999997
428357205 -0.0411442424 -0.13724698559999998
428396888 -0.0418173064 -0.1368876
428436571 -0.039609416 -0.1377138112
428476254 -0.0402635992 -0.13605551040000002
428515937 -0.039792501599999995 -0.136438096
428555620 -0.039625092800000004 -0.135575936
428595303 -0.0382052696 -0.1360711808
428634986 -0.038166726399999996 -0.1354097696
428674669 -0.0379430976 -0.135660368
428714352 -0.036178852799999994 -0.13545810879999998
428754035 -0.0357649336 -0.1352509472
428793718 -0.0345607872 -0.1350643712
428833401 -0.035036784 -0.1358013984
428873084 -0.0348259216 -0.1346228928
428912767 -0.034289634 -0.1352831328
428952450 -0.0326705496 -0.1347682544
428992133 -0.0318303624 -0.1348735008
429031816 -0.032532095999999996 -0.13435730399999998
429071499 -0.032733622 -0.13413737439999998
429111182 -0.0317456844 -0.1343775296
429150865 -0.031002754799999997 -0.13369962080000003
429190548 -0.029690433999999998 -0.13364458240000002
429230231 -0.0283880132 -0.1339761376
429269914 -0.028984985600000002 -0.1346247424
429309597 -0.0286118724 -0.1336705936
429349280 -0.0279098456 -0.13393420000000003
429388963 -0.026509511200000002 -0.1339705296
429428646 -0.027089832400000003 -0.13372740160000002
429468329 -0.025447369999999997 -0.13315326239999997
429508012 -0.0254532708 -0.1342830624
429547695 -0.0240819712 -0.133739168
429587378 -0.0239121708 -0.1336228448
429627061 -0.0235524732 -0.13338249119999998
429666744 -0.022153582 -0.13327568480000002
429706427 -0.020865374400000004 -0.1338260208
429746110 -0.021991153199999995 -0.1337664288
429785793 -0.0209634808 -0.1334666656
429825476 -0.0208277168 -0.1345903552
429865159 -0.018904566 -0.1336904416
429904842 -0.0192414548 -0.133145096
429944525 -0.018357591199999995 -0.133395136
429984208 -0.01869741 -0.133465272
430023891 -0.0167169814 -0.13391029599999998
430063574 -0.0165210072 -0.1335736448
430103257 -0.017049441 -0.13314918720000002
430142940 -0.0155954904 -0.1339606512
430182623 -0.0157717918 -0.1332827184
430222306 -0.014721140600000002 -0.1344821872
430261989 -0.014643719199999999 -0.1339511168
430301672 -0.014130995399999999 -0.13379708480000002
430341355 -0.0118975082 -0.1346352192
430381038 -0.012783471599999999 -0.1343370784
430420721 -0.0117309372 -0.1349470016
430460404 -0.011603942 -0.134597904
430500087 -0.0106802078 -0.13517487359999997
430539770 -0.0105607138 -0.1354196112
430579453 -0.0086280436 -0.134506456
430619136 -0.0097313992 -0.1345477552
430658819 -0.0088943826 -0.1355271872
430698502 -0.0080663204 -0.13531308160000002
430738185 -0.006907630600000001 -0.13619137280000002
430777868 -0.0069092604000000005 -0.1360112896
430817551 -0.006214656399999999 -0.13635134720000003
430857234 -0.0066871442 -0.13580660800000002
430896917 -0.004587585 -0.13671150399999998
430936600 -0.0053468416 -0.1361455712
430976283 -0.0041612366 -0.13602729600000002
431015966 -0.0044305472 -0.1373369248
431055649 -0.0028315264 -0.1374812576
431095332 -0.0017565325999999999 -0.1380392352
431135015 -0.0016321118 -0.13853138880000002
431174698 -0.0006701926 -0.1382741696
431214381 -0.0005315086 -0.1384430944
431254064 0.0002641328 -0.1381108576
431293747 0.0004711622 -0.138777248
431333430 0.0011751588 -0.1396148928
431373113 0.0008488366 -0.1394876704
431412796 0.002150229 -0.1393321888
431452479 0.0029953020000000005 -0.1401400288
431492162 0.0030207036 -0.1395680384
431531845 0.0039489546 -0.140178448
431571528 0.0044911934 -0.1405886112
431611211 0.0044408930000000004 -0.1408588992
431650894 0.0047256174 -0.1411296672
431690577 0.0052201868 -0.1416004864
431730260 0.0060060854 -0.14166227199999998
431769943 0.0063914338000000005 -0.14185363199999998
431809626 0.0070621314 -0.143103136
431849309 0.0066154162 -0.1429805568
431888992 0.007792734600000001 -0.14355598080000004
431928675 0.0085942726 -0.14372464000000001
431968358 0.008850793999999999 -0.14386545280000002
432008041 0.009012895200000001 -0.1441509376
432047724 0.0096268096 -0.14457987199999997
432087407 0.0100781148 -0.1451465504
432127090 0.0105151148 -0.1458516192
432166773 0.0099761664 -0.14597094400000002
432206456 0.0109468186 -0.14594188160000002
432246139 0.011146989399999998 -0.1465291456
432285822 0.010973124 -0.14731805439999998
432325505 0.012072869599999998 -0.14787087679999997
432365188 0.012321385399999999 -0.1468007328
432404871 0.0127268862 -0.1482697248
432444554 0.0137481142 -0.1484742336
432484237 0.0141406016 -0.148863872
432523920 0.014257356799999999 -0.1497115136
432563603 0.015448151400000002 -0.14997120960000002
432603286 0.015097042199999999 -0.1505000096
432642969 0.016044272999999998 -0.151185504
432682652 0.0159379784 -0.1508690848
432722335 0.0163103404 -0.15155855359999998
432762018 0.0166418484 -0.1518975808
432801701 0.0171246164 -0.1527299808
432841384 0.016941069999999996 -0.15337659200000003
432881067 0.017261313400000002 -0.1531689088
432920750 0.018132057200000003 -0.1528958848
432960433 0.0180872592 -0.1542446912
433000116 0.018210738400000002 -0.15532026559999998
433039799 0.0183438456 -0.1549744704
433079482 0.0189589828 -0.155601536
433119165 0.0191541332 -0.15665452479999997
433158848 0.0197437588 -0.15667920640000002
433198531 0.0198528552 -0.15671404160000002
433238214 0.0202853988 -0.15724664
433277897 0.02090434 -0.15754104959999998
433317580 0.020643143600000004 -0.15900298559999998
433357263 0.021226692 -0.15869882240000002
433396946 0.021085048 -0.15999348799999996
433436629 0.0206313424 -0.1595671616
433476312 0.0213827752 -0.1604542464
433515995 0.0219186908 -0.1614801312
433555678 0.022226519599999998 -0.1611835232
433595361 0.02202221 -0.1628739776
433635044 0.0223657628 -0.16365958079999998
433674727 0.0235607684 -0.16331645440000003
433714410 0.021920514000000002 -0.1641747168
433754093 0.022843886 -0.1633501856
433793776 0.023234886000000003 -0.164990384
433833459 0.0229135432 -0.165249888
433873142 0.0244564332 -0.16621148800000002
433912825 0.022816277200000002 -0.1659550208
433952508 0.0237173372 -0.1660058752
433992191 0.0242747388 -0.16786366079999998
434031874 0.024035094 -0.1670935168
434071557 0.024046651999999998 -0.16844991039999999
434111240 0.024998589199999997 -0.16912283520000002
434150923 0.0245582736 -0.16931651519999996
434190606 0.0248230004 -0.1708917568
434230289 0.024403504 -0.170090672
434269972 0.0249603996 -0.1708779488
434309655 0.0237740676 -0.172395664
434349338 0.0255777804 -0.171714672
434389021 0.024850453600000003 -0.1722686464
434428704 0.0245690236 -0.1738715232
434468387 0.024598233199999996 -0.1729740992
434508070 0.025506478 -0.1740000224
434547753 0.024976502399999996 -0.17387400960000002
434587436 0.025692586399999995 -0.1752999328
434627119 0.0251082564 -0.1757785824
434666802 0.025667565600000004 -0.1762780224
434706485 0.0253794488 -0.1773200288
434746168 0.025041577600000003 -0.177208144
434785851 0.0259222348 -0.17746642880000002
434825534 0.025267989199999997 -0.1783817504
434865217 0.0251970964 -0.1794724896
434904900 0.0254806948 -0.1787757216
434944583 0.025213410800000002 -0.18012198399999998
434984266 0.025577182799999997 -0.1805751808
435023949 0.02463787 -0.18019272000000003
435063632 0.025744114800000002 -0.181011104
435103315 0.0248526672 -0.18217808
435142998 0.025004700400000003 -0.18216387520000002
435182681 0.025238560799999997 -0.18201308160000002
435222364 0.0247913536 -0.1824326912
435262047 0.024816786799999997 -0.18322032
435301730 0.023945746400000002 -0.1837916608
435341413 0.0249454376 -0.1843590208
435381096 0.025052626 -0.18527432319999998
435420779 0.0247873768 -0.1855750592
435460462 0.024856510800000002 -0.1863903456
435500145 0.0241567688 -0.1860646848
435539828 0.0244925732 -0.18708552320000002
435579511 0.024410198400000003 -0.1874560832
435619194 0.024396636 -0.187901824
435658877 0.024172264399999997 -0.1881138368
435698560 0.0238247564 -0.18929916160000002
435738243 0.0237268676 -0.18900150400000001
435777926 0.023324352 -0.1900035296
435817609 0.0236434976 -0.1899679744
435857292 0.023319174399999996 -0.19149477439999998
435896975 0.0230534108 -0.1906630464
435936658 0.0230473684 -0.19174793920000002
435976341 0.0215499392 -0.1917232
436016024 0.023041573200000002 -0.19233955519999998
436055707 0.021722542799999998 -0.1934220352
436095390 0.021787921600000003 -0.19288732479999998
436135073 0.0220383964 -0.19346548160000002
436174756 0.02193655 -0.1946019744
436214439 0.0214207412 -0.1944261568
436254122 0.021672123600000003 -0.1946831168
436293805 0.0215004592 -0.19548361599999997
436333488 0.0211947396 -0.19610912640000003
436373171 0.0213316396 -0.1952329888
436412854 0.020549668 -0.1969274784
436452537 0.0198076692 -0.19735132800000002
436492220 0.020495928 -0.19613545280000003
436531903 0.0200321404 -0.19756853759999998
436571586 0.0195743268 -0.19833836800000001
436611269 0.0195074336 -0.19824244159999999
436650952 0.0194690792 -0.1984915712
436690635 0.019990609200000002 -0.20004264000000002
436730318 0.018870979200000002 -0.1992873696
436770001 0.0187288452 -0.199753392
436809684 0.018353541600000002 -0.20034418240000001
436849367 0.018302774 -0.2005864704
436889050 0.0185220736 -0.20050733440000004
436928733 0.0183555708 -0.20116804159999999
436968416 0.017544504600000004 -0.20221813760000001
437008099 0.0171487226 -0.2020362624
437047782 0.016657477799999997 -0.20261096959999997
437087465 0.0173678908 -0.20312149119999998
437127148 0.016288058 -0.20237239359999998
437166831 0.0171035198 -0.2030503232
437206514 0.015580936 -0.2040320544
437246197 0.0152523876 -0.2039593184
437285880 0.016282897999999997 -0.20479288
437325563 0.015413836199999998 -0.20418557119999997
437365246 0.015077052599999998 -0.20469908480000001
437404929 0.0150314496 -0.2046807168
437444612 0.014445803600000001 -0.205801664
437484295 0.0144218168 -0.2049642784
437523978 0.013976843999999999 -0.20655538879999996
437563661 0.0132352026 -0.20605599680000003
437603344 0.0141268538 -0.20702015359999998
437643027 0.012970538600000001 -0.2070384384
437682710 0.0127475126 -0.2065066976
437722393 0.012898912600000001 -0.20746106879999998
437762076 0.0121415156 -0.2072344992
437801759 0.012457695 -0.208261312
437841442 0.0127933776 -0.20840576320000004
437881125 0.011529938 -0.20849013119999998
437920808 0.0118001738 -0.20844060479999998
437960491 0.010754683599999999 -0.2087732832
438000174 0.0117510676 -0.2096854144
438039857 0.0106200034 -0.20935910719999998
438079540 0.009913367400000001 -0.20952869439999997
438119223 0.010522070400000002 -0.20984224
438158906 0.009980378199999999 -0.2102702432
438198589 0.0093622642 -0.21012892160000002
438238272 0.009629450199999999 -0.2101085088
438277955 0.0085337698 -0.21099712640000004
438317638 0.0083775736 -0.21038658240000002
438357321 0.008707678 -0.2110943808
438397004 0.0074715434 -0.2111318976
438436687 0.007288844 -0.21088627199999999
438476370 0.0079785418 -0.21198174079999998
438516053 0.0070783892 -0.2118910144
438555736 0.0069920304 -0.21230192960000002
438595419 0.0070088336 -0.2126012096
438635102 0.006496241 -0.21309266879999997
438674785 0.006569232999999999 -0.2129659776
438714468 0.005547600000000001 -0.2130776224
438754151 0.0051779298 -0.2125421088
438793834 0.0050002096000000005 -0.2134012544
438833517 0.0044014896 -0.21339448
438873200 0.0045401558 -0.21425950079999997
438912883 0.0047775478 -0.2138938208
438952566 0.0055515778000000005 -0.21384438720000004
438992249 0.0034300958 -0.2132586368
439031932 0.0033115251999999997 -0.2128028128
439071615 0.0037175444000000003 -0.21483037440000002
439111298 0.0022226888 -0.21454089280000002
439150981 0.002399271 -0.215113216
439190664 0.0017070568 -0.2151845824
439230347 0.0012302658000000002 -0.21528719359999998
439270030 0.001567164 -0.215359168
439309713 0.0014385084 -0.21541604160000002
439349396 0.0005248106000000001 -0.21566106559999998
439389079 0.0010811452 -0.2156676192
439428762 3.1072399999999964e-05 -0.2150326496
439468445 0.0002979586 -0.2152374528
439508128 -0.00022894300000000003 -0.21610823359999998
439547811 -0.00046478200000000006 -0.21618591360000003
439587494 -7.521400000000002e-05 -0.2159723168
439627177 -0.0015499902 -0.2169905984
439666860 -0.0010491328 -0.2164750368
439706543 -0.0015900954000000003 -0.216923808
439746226 -0.0019319750000000003 -0.21636027200000002
439785909 -0.0026187956 -0.21610608
439825592 -0.0024000594 -0.2167610048
439865275 -0.0036330358 -0.21706894399999999
439904958 -0.0033080016000000003 -0.2172430464
439944641 -0.0036913957999999995 -0.21706764480000001
439984324 -0.0038360354 -0.2171578464
440024007 -0.004726881 -0.2172584096
440063690 -0.004350819800000001 -0.21759028800000002
440103373 -0.004418292 -0.2178339712
440143056 -0.0058637232 -0.21764190079999998
440182739 -0.0052826392 -0.2174415456
440222422 -0.005922677 -0.2176339296
440262105 -0.0060703066 -0.21757128639999998
440301788 -0.0060495054 -0.217919248
440341471 -0.0063935112 -0.217590624
440381154 -0.0066253934 -0.2182682528
440420837 -0.006895500000000001 -0.21861105919999999
440460520 -0.0078322212 -0.218877712
440500203 -0.007791208799999999 -0.2182170496
440539886 -0.0082439252 -0.21938283200000003
440579569 -0.008502727 -0.2173928256
440619252 -0.008674011 -0.21825368639999998
440658935 -0.0087587312 -0.21931939520000002
440698618 -0.0091955664 -0.2182715488
440738301 -0.009263023 -0.21919196479999997
440777984 -0.0097674358 -0.219235984
440817667 -0.010578857799999999 -0.2193246208
440857350 -0.0105338992 -0.21842302719999998
440897033 -0.011338778599999998 -0.2187962464
440936716 -0.011362482 -0.2184382624
440976399 -0.0120608868 -0.2180884288
441016082 -0.012104616200000001 -0.2182637888
441055765 -0.0131857568 -0.21835225600000002
441095448 -0.012472391599999999 -0.2183993504
441135131 -0.012742742199999999 -0.2189392352
441174814 -0.013334366 -0.21918053440000002
441214497 -0.013356969800000002 -0.2188198048
441254180 -0.014758705 -0.218948832
441293863 -0.0143953266 -0.2186121344
441333546 -0.013756016400000001 -0.21879138559999997
441373229 -0.014517969799999999 -0.21877442239999997
441412912 -0.0149400524 -0.21961704320000003
441452595 -0.0157615634 -0.21828305599999998
441492278 -0.014816481400000001 -0.21884656639999997
441531961 -0.0161507496 -0.21893141759999998
